                      * functionality check of oai23av0x05, 0.13um, Berkeley generic bsim3 params
                      Transient Analysis (linearized)  Sat Feb 10 12:49:12  2007
------------------------------------------------------------------------------------------------------------------------
Index   v(v90)          v(x01:w3)       v(x02:w3)       v(x01:w1)       v(x02:w1)       v(x01:w2)       v(x02:w2)       
------------------------------------------------------------------------------------------------------------------------
0	 1.080000e+00	 1.199444e+00	 1.199444e+00	 1.199999e+00	 1.199999e+00	 1.982582e-06	 1.982582e-06	
1	 1.080000e+00	 1.194298e+00	 1.194299e+00	 1.198453e+00	 1.198615e+00	-4.577860e-03	-4.520671e-03	
2	 1.080000e+00	 1.189140e+00	 1.189141e+00	 1.196939e+00	 1.197326e+00	-9.000699e-03	-8.887767e-03	
3	 1.080000e+00	 1.183970e+00	 1.183971e+00	 1.195479e+00	 1.196131e+00	-1.321185e-02	-1.304517e-02	
4	 1.080000e+00	 1.178788e+00	 1.178790e+00	 1.194085e+00	 1.195028e+00	-1.717628e-02	-1.695930e-02	
5	 1.080000e+00	 1.173595e+00	 1.173597e+00	 1.192761e+00	 1.194004e+00	-2.089474e-02	-2.063202e-02	
6	 1.080000e+00	 1.168392e+00	 1.168394e+00	 1.191502e+00	 1.193047e+00	-2.438027e-02	-2.407684e-02	
7	 1.080000e+00	 1.163178e+00	 1.163180e+00	 1.190305e+00	 1.192147e+00	-2.764910e-02	-2.731017e-02	
8	 1.080000e+00	 1.157954e+00	 1.157956e+00	 1.189167e+00	 1.191293e+00	-3.071758e-02	-3.034831e-02	
9	 1.080000e+00	 1.152720e+00	 1.152723e+00	 1.188084e+00	 1.190481e+00	-3.360109e-02	-3.320646e-02	
10	 1.080000e+00	 1.147477e+00	 1.147481e+00	 1.187052e+00	 1.189704e+00	-3.631356e-02	-3.589828e-02	
11	 1.080000e+00	 1.142226e+00	 1.142230e+00	 1.186068e+00	 1.188960e+00	-3.886719e-02	-3.843565e-02	
12	 1.080000e+00	 1.136966e+00	 1.136971e+00	 1.185131e+00	 1.188244e+00	-4.127214e-02	-4.082838e-02	
13	 1.080000e+00	 1.131698e+00	 1.131706e+00	 1.184237e+00	 1.187554e+00	-4.353623e-02	-4.308394e-02	
14	 1.080000e+00	 1.126424e+00	 1.126435e+00	 1.183386e+00	 1.186890e+00	-4.566448e-02	-4.520698e-02	
15	 1.080000e+00	 1.121145e+00	 1.121160e+00	 1.182575e+00	 1.186250e+00	-4.765868e-02	-4.719897e-02	
16	 1.080000e+00	 1.115863e+00	 1.115886e+00	 1.181803e+00	 1.185633e+00	-4.951710e-02	-4.905786e-02	
17	 1.080000e+00	 1.110581e+00	 1.110614e+00	 1.181068e+00	 1.185037e+00	-5.123437e-02	-5.077796e-02	
18	 1.080000e+00	 1.105303e+00	 1.105352e+00	 1.180368e+00	 1.184461e+00	-5.280178e-02	-5.235027e-02	
19	 1.080000e+00	 1.100034e+00	 1.100107e+00	 1.179696e+00	 1.183902e+00	-5.420797e-02	-5.376306e-02	
20	 1.080000e+00	 1.094781e+00	 1.094888e+00	 1.179047e+00	 1.183352e+00	-5.543988e-02	-5.500281e-02	
21	 1.080000e+00	 1.089554e+00	 1.089709e+00	 1.178410e+00	 1.182805e+00	-5.648372e-02	-5.605505e-02	
22	 1.080000e+00	 1.084361e+00	 1.084585e+00	 1.177772e+00	 1.182249e+00	-5.732559e-02	-5.690493e-02	
23	 1.080000e+00	 1.079215e+00	 1.079534e+00	 1.177119e+00	 1.181678e+00	-5.795162e-02	-5.753746e-02	
24	 1.080000e+00	 1.074128e+00	 1.074577e+00	 1.176440e+00	 1.181083e+00	-5.834785e-02	-5.793772e-02	
25	 1.080000e+00	 1.069111e+00	 1.069735e+00	 1.175729e+00	 1.180463e+00	-5.850023e-02	-5.809121e-02	
26	 1.080000e+00	 1.064178e+00	 1.065030e+00	 1.174985e+00	 1.179818e+00	-5.839512e-02	-5.798444e-02	
27	 1.080000e+00	 1.059344e+00	 1.060486e+00	 1.174211e+00	 1.179150e+00	-5.801991e-02	-5.760536e-02	
28	 1.080000e+00	 1.054626e+00	 1.056124e+00	 1.173411e+00	 1.178464e+00	-5.736342e-02	-5.694352e-02	
29	 1.080000e+00	 1.050047e+00	 1.051969e+00	 1.172591e+00	 1.177762e+00	-5.641599e-02	-5.598988e-02	
30	 1.080000e+00	 1.045636e+00	 1.048045e+00	 1.171756e+00	 1.177048e+00	-5.516928e-02	-5.473657e-02	
31	 1.080000e+00	 1.041426e+00	 1.044378e+00	 1.170910e+00	 1.176323e+00	-5.361579e-02	-5.317636e-02	
32	 1.080000e+00	 1.037447e+00	 1.040991e+00	 1.170055e+00	 1.175588e+00	-5.174845e-02	-5.130229e-02	
33	 1.080000e+00	 1.033731e+00	 1.037907e+00	 1.169194e+00	 1.174846e+00	-4.956007e-02	-4.910718e-02	
34	 1.080000e+00	 1.030300e+00	 1.035141e+00	 1.168327e+00	 1.174097e+00	-4.704281e-02	-4.658308e-02	
35	 1.080000e+00	 1.027173e+00	 1.032701e+00	 1.167457e+00	 1.173342e+00	-4.418758e-02	-4.372079e-02	
36	 1.080000e+00	 1.024358e+00	 1.030592e+00	 1.166585e+00	 1.172583e+00	-4.098336e-02	-4.050913e-02	
37	 1.080000e+00	 1.021859e+00	 1.028809e+00	 1.165713e+00	 1.171821e+00	-3.741629e-02	-3.693408e-02	
38	 1.080000e+00	 1.019671e+00	 1.027342e+00	 1.164844e+00	 1.171060e+00	-3.346850e-02	-3.297758e-02	
39	 1.080000e+00	 1.017786e+00	 1.026177e+00	 1.163982e+00	 1.170305e+00	-2.911622e-02	-2.861565e-02	
40	 1.080000e+00	 1.016189e+00	 1.025295e+00	 1.163134e+00	 1.169562e+00	-2.432691e-02	-2.381553e-02	
41	 1.080000e+00	 1.014865e+00	 1.024674e+00	 1.162308e+00	 1.168839e+00	-1.905434e-02	-1.853066e-02	
42	 1.080000e+00	 1.013795e+00	 1.024290e+00	 1.161518e+00	 1.168149e+00	-1.323118e-02	-1.269335e-02	
43	 1.080000e+00	 1.012957e+00	 1.024119e+00	 1.160783e+00	 1.167513e+00	-6.753558e-03	-6.197600e-03	
44	 1.080000e+00	 1.012333e+00	 1.024136e+00	 1.160130e+00	 1.166955e+00	 5.210123e-04	 1.098757e-03	
45	 1.080000e+00	 1.011903e+00	 1.024316e+00	 1.159573e+00	 1.166489e+00	 8.707421e-03	 9.307410e-03	
46	 1.080000e+00	 1.011646e+00	 1.024637e+00	 1.159094e+00	 1.166095e+00	 1.779442e-02	 1.841303e-02	
47	 1.080000e+00	 1.011541e+00	 1.025072e+00	 1.158655e+00	 1.165737e+00	 2.767629e-02	 2.830925e-02	
48	 1.080000e+00	 1.011567e+00	 1.025600e+00	 1.158230e+00	 1.165388e+00	 3.826002e-02	 3.890449e-02	
49	 1.080000e+00	 1.011703e+00	 1.026198e+00	 1.157810e+00	 1.165040e+00	 4.949616e-02	 5.015030e-02	
50	 1.080000e+00	 1.011930e+00	 1.026848e+00	 1.157391e+00	 1.164690e+00	 6.136102e-02	 6.202339e-02	
51	 1.080000e+00	 1.012233e+00	 1.027530e+00	 1.156976e+00	 1.164341e+00	 7.384183e-02	 7.451116e-02	
52	 1.080000e+00	 1.012594e+00	 1.028230e+00	 1.156565e+00	 1.163995e+00	 8.693024e-02	 8.760536e-02	
53	 1.080000e+00	 1.013000e+00	 1.028935e+00	 1.156161e+00	 1.163652e+00	 1.006197e-01	 1.012995e-01	
54	 1.080000e+00	 1.013440e+00	 1.029634e+00	 1.155764e+00	 1.163315e+00	 1.149042e-01	 1.155876e-01	
55	 1.080000e+00	 1.013903e+00	 1.030318e+00	 1.155374e+00	 1.162984e+00	 1.297774e-01	 1.304634e-01	
56	 1.080000e+00	 1.014380e+00	 1.030979e+00	 1.154991e+00	 1.162659e+00	 1.452321e-01	 1.459198e-01	
57	 1.080000e+00	 1.014863e+00	 1.031613e+00	 1.154614e+00	 1.162339e+00	 1.612593e-01	 1.619477e-01	
58	 1.080000e+00	 1.015348e+00	 1.032215e+00	 1.154241e+00	 1.162022e+00	 1.778475e-01	 1.785358e-01	
59	 1.080000e+00	 1.015828e+00	 1.032783e+00	 1.153867e+00	 1.161705e+00	 1.949814e-01	 1.956685e-01	
60	 1.080000e+00	 1.016302e+00	 1.033319e+00	 1.153490e+00	 1.161385e+00	 2.125901e-01	 2.132751e-01	
61	 1.080000e+00	 1.024235e+00	 1.041005e+00	 1.154605e+00	 1.162361e+00	 2.343982e-01	 2.349977e-01	
62	 1.080000e+00	 1.031681e+00	 1.048049e+00	 1.155691e+00	 1.163240e+00	 2.559703e-01	 2.564797e-01	
63	 1.080000e+00	 1.038695e+00	 1.054541e+00	 1.156753e+00	 1.164043e+00	 2.772859e-01	 2.777030e-01	
64	 1.080000e+00	 1.045301e+00	 1.060524e+00	 1.157792e+00	 1.164784e+00	 2.983149e-01	 2.986397e-01	
65	 1.080000e+00	 1.051539e+00	 1.066064e+00	 1.158813e+00	 1.165481e+00	 3.190575e-01	 3.192915e-01	
66	 1.080000e+00	 1.057444e+00	 1.071217e+00	 1.159823e+00	 1.166150e+00	 3.395295e-01	 3.396751e-01	
67	 1.080000e+00	 1.063046e+00	 1.076030e+00	 1.160829e+00	 1.166802e+00	 3.597504e-01	 3.598103e-01	
68	 1.080000e+00	 1.068372e+00	 1.080542e+00	 1.161833e+00	 1.167446e+00	 3.797347e-01	 3.797119e-01	
69	 1.080000e+00	 1.073442e+00	 1.084789e+00	 1.162833e+00	 1.168084e+00	 3.994892e-01	 3.993866e-01	
70	 1.080000e+00	 1.078274e+00	 1.088796e+00	 1.163828e+00	 1.168717e+00	 4.190143e-01	 4.188352e-01	
71	 1.080000e+00	 1.082886e+00	 1.092589e+00	 1.164814e+00	 1.169342e+00	 4.383066e-01	 4.380544e-01	
72	 1.080000e+00	 1.087289e+00	 1.096186e+00	 1.165785e+00	 1.169958e+00	 4.573604e-01	 4.570387e-01	
73	 1.080000e+00	 1.091496e+00	 1.099604e+00	 1.166739e+00	 1.170560e+00	 4.761689e-01	 4.757812e-01	
74	 1.080000e+00	 1.095517e+00	 1.102857e+00	 1.167671e+00	 1.171148e+00	 4.947250e-01	 4.942750e-01	
75	 1.080000e+00	 1.099360e+00	 1.105958e+00	 1.168578e+00	 1.171716e+00	 5.130214e-01	 5.125128e-01	
76	 1.080000e+00	 1.103035e+00	 1.108916e+00	 1.169457e+00	 1.172262e+00	 5.310509e-01	 5.304874e-01	
77	 1.080000e+00	 1.106547e+00	 1.111740e+00	 1.170303e+00	 1.172783e+00	 5.488069e-01	 5.481920e-01	
78	 1.080000e+00	 1.109903e+00	 1.114438e+00	 1.171115e+00	 1.173277e+00	 5.662831e-01	 5.656205e-01	
79	 1.080000e+00	 1.113109e+00	 1.117014e+00	 1.171889e+00	 1.173740e+00	 5.834741e-01	 5.827675e-01	
80	 1.080000e+00	 1.116169e+00	 1.119476e+00	 1.172623e+00	 1.174169e+00	 6.003761e-01	 5.996289e-01	
81	 1.080000e+00	 1.119088e+00	 1.121827e+00	 1.173312e+00	 1.174560e+00	 6.169871e-01	 6.162028e-01	
82	 1.080000e+00	 1.121868e+00	 1.124070e+00	 1.173952e+00	 1.174910e+00	 6.333076e-01	 6.324897e-01	
83	 1.080000e+00	 1.124512e+00	 1.126207e+00	 1.174537e+00	 1.175212e+00	 6.493407e-01	 6.484925e-01	
84	 1.080000e+00	 1.127019e+00	 1.128238e+00	 1.175058e+00	 1.175457e+00	 6.650907e-01	 6.642159e-01	
85	 1.080000e+00	 1.129381e+00	 1.130159e+00	 1.175496e+00	 1.175631e+00	 6.805623e-01	 6.796648e-01	
86	 1.080000e+00	 1.131589e+00	 1.131962e+00	 1.175829e+00	 1.175711e+00	 6.957602e-01	 6.948448e-01	
87	 1.080000e+00	 1.133624e+00	 1.133634e+00	 1.176022e+00	 1.175669e+00	 7.106913e-01	 7.097633e-01	
88	 1.080000e+00	 1.135463e+00	 1.135156e+00	 1.176032e+00	 1.175468e+00	 7.253658e-01	 7.244317e-01	
89	 1.080000e+00	 1.137075e+00	 1.136505e+00	 1.175810e+00	 1.175065e+00	 7.397975e-01	 7.388647e-01	
90	 1.080000e+00	 1.138427e+00	 1.137658e+00	 1.175304e+00	 1.174420e+00	 7.540016e-01	 7.530784e-01	
91	 1.080000e+00	 1.139485e+00	 1.138586e+00	 1.174474e+00	 1.173501e+00	 7.679909e-01	 7.670864e-01	
92	 1.080000e+00	 1.140215e+00	 1.139263e+00	 1.173294e+00	 1.172295e+00	 7.817715e-01	 7.808956e-01	
93	 1.080000e+00	 1.140584e+00	 1.139663e+00	 1.171762e+00	 1.170812e+00	 7.953402e-01	 7.945032e-01	
94	 1.080000e+00	 1.140567e+00	 1.139764e+00	 1.169891e+00	 1.169073e+00	 8.086837e-01	 8.078964e-01	
95	 1.080000e+00	 1.140144e+00	 1.139550e+00	 1.167698e+00	 1.167101e+00	 8.217819e-01	 8.210551e-01	
96	 1.080000e+00	 1.139294e+00	 1.139005e+00	 1.165190e+00	 1.164907e+00	 8.346112e-01	 8.339560e-01	
97	 1.080000e+00	 1.138000e+00	 1.138112e+00	 1.162369e+00	 1.162494e+00	 8.471487e-01	 8.465758e-01	
98	 1.080000e+00	 1.136252e+00	 1.136863e+00	 1.159227e+00	 1.159854e+00	 8.593746e-01	 8.588938e-01	
99	 1.080000e+00	 1.134047e+00	 1.135252e+00	 1.155753e+00	 1.156976e+00	 8.712727e-01	 8.708934e-01	
100	 1.080000e+00	 1.131381e+00	 1.133275e+00	 1.151938e+00	 1.153850e+00	 8.828315e-01	 8.825618e-01	
101	 1.080000e+00	 1.128257e+00	 1.130934e+00	 1.147773e+00	 1.150463e+00	 8.940430e-01	 8.938904e-01	
102	 1.080000e+00	 1.124681e+00	 1.128231e+00	 1.143251e+00	 1.146810e+00	 9.049030e-01	 9.048741e-01	
103	 1.080000e+00	 1.120660e+00	 1.125170e+00	 1.138370e+00	 1.142882e+00	 9.154109e-01	 9.155110e-01	
104	 1.080000e+00	 1.116204e+00	 1.121758e+00	 1.133131e+00	 1.138678e+00	 9.255686e-01	 9.258024e-01	
105	 1.080000e+00	 1.111326e+00	 1.118004e+00	 1.127536e+00	 1.134199e+00	 9.353812e-01	 9.357524e-01	
106	 1.080000e+00	 1.106039e+00	 1.113918e+00	 1.121594e+00	 1.129445e+00	 9.448557e-01	 9.453671e-01	
107	 1.080000e+00	 1.100360e+00	 1.109511e+00	 1.115313e+00	 1.124423e+00	 9.540005e-01	 9.546543e-01	
108	 1.080000e+00	 1.094305e+00	 1.104796e+00	 1.108703e+00	 1.119140e+00	 9.628253e-01	 9.636229e-01	
109	 1.080000e+00	 1.087892e+00	 1.099785e+00	 1.101777e+00	 1.113602e+00	 9.713399e-01	 9.722821e-01	
110	 1.080000e+00	 1.081139e+00	 1.094494e+00	 1.094550e+00	 1.107821e+00	 9.795544e-01	 9.806413e-01	
111	 1.080000e+00	 1.074066e+00	 1.088936e+00	 1.087037e+00	 1.101807e+00	 9.874783e-01	 9.887095e-01	
112	 1.080000e+00	 1.066691e+00	 1.083127e+00	 1.079252e+00	 1.095570e+00	 9.951210e-01	 9.964955e-01	
113	 1.080000e+00	 1.059034e+00	 1.077080e+00	 1.071213e+00	 1.089123e+00	 1.002491e+00	 1.004007e+00	
114	 1.080000e+00	 1.051113e+00	 1.070812e+00	 1.062934e+00	 1.082477e+00	 1.009597e+00	 1.011253e+00	
115	 1.080000e+00	 1.042949e+00	 1.064336e+00	 1.054433e+00	 1.075645e+00	 1.016446e+00	 1.018240e+00	
116	 1.080000e+00	 1.034559e+00	 1.057667e+00	 1.045726e+00	 1.068639e+00	 1.023047e+00	 1.024975e+00	
117	 1.080000e+00	 1.025960e+00	 1.050818e+00	 1.036827e+00	 1.061470e+00	 1.029405e+00	 1.031465e+00	
118	 1.080000e+00	 1.017170e+00	 1.043803e+00	 1.027752e+00	 1.054150e+00	 1.035528e+00	 1.037717e+00	
119	 1.080000e+00	 1.008206e+00	 1.036635e+00	 1.018516e+00	 1.046690e+00	 1.041423e+00	 1.043737e+00	
120	 1.080000e+00	 9.990817e-01	 1.029325e+00	 1.009134e+00	 1.039101e+00	 1.047097e+00	 1.049532e+00	
121	 1.080000e+00	 9.898135e-01	 1.021886e+00	 9.996180e-01	 1.031394e+00	 1.052555e+00	 1.055107e+00	
122	 1.080000e+00	 9.804152e-01	 1.014328e+00	 9.899822e-01	 1.023578e+00	 1.057803e+00	 1.060470e+00	
123	 1.080000e+00	 9.709003e-01	 1.006661e+00	 9.802391e-01	 1.015662e+00	 1.062849e+00	 1.065625e+00	
124	 1.080000e+00	 9.612816e-01	 9.988955e-01	 9.704008e-01	 1.007656e+00	 1.067699e+00	 1.070580e+00	
125	 1.080000e+00	 9.515713e-01	 9.910400e-01	 9.604790e-01	 9.995681e-01	 1.072358e+00	 1.075340e+00	
126	 1.080000e+00	 9.417814e-01	 9.831031e-01	 9.504850e-01	 9.914064e-01	 1.076833e+00	 1.079912e+00	
127	 1.080000e+00	 9.319229e-01	 9.750929e-01	 9.404297e-01	 9.831785e-01	 1.081129e+00	 1.084301e+00	
128	 1.080000e+00	 9.220068e-01	 9.670171e-01	 9.303236e-01	 9.748917e-01	 1.085252e+00	 1.088513e+00	
129	 1.080000e+00	 9.120437e-01	 9.588828e-01	 9.201771e-01	 9.665529e-01	 1.089209e+00	 1.092554e+00	
130	 1.080000e+00	 9.020440e-01	 9.506968e-01	 9.100002e-01	 9.581686e-01	 1.093004e+00	 1.096430e+00	
131	 1.080000e+00	 8.920177e-01	 9.424655e-01	 8.998031e-01	 9.497451e-01	 1.096644e+00	 1.100147e+00	
132	 1.080000e+00	 8.819749e-01	 9.341950e-01	 8.895955e-01	 9.412883e-01	 1.100134e+00	 1.103710e+00	
133	 1.080000e+00	 8.719257e-01	 9.258913e-01	 8.793873e-01	 9.328040e-01	 1.103479e+00	 1.107125e+00	
134	 1.080000e+00	 8.618801e-01	 9.175599e-01	 8.691886e-01	 9.242977e-01	 1.106685e+00	 1.110397e+00	
135	 1.080000e+00	 8.518485e-01	 9.092063e-01	 8.590095e-01	 9.157747e-01	 1.109757e+00	 1.113531e+00	
136	 1.080000e+00	 8.418411e-01	 9.008359e-01	 8.488601e-01	 9.072402e-01	 1.112700e+00	 1.116533e+00	
137	 1.080000e+00	 8.318688e-01	 8.924538e-01	 8.387512e-01	 8.986993e-01	 1.115518e+00	 1.119407e+00	
138	 1.080000e+00	 8.219426e-01	 8.840650e-01	 8.286935e-01	 8.901570e-01	 1.118217e+00	 1.122159e+00	
139	 1.080000e+00	 8.120739e-01	 8.756746e-01	 8.186986e-01	 8.816182e-01	 1.120802e+00	 1.124793e+00	
140	 1.080000e+00	 8.022749e-01	 8.672876e-01	 8.087782e-01	 8.730878e-01	 1.123275e+00	 1.127314e+00	
141	 1.080000e+00	 7.925582e-01	 8.589090e-01	 7.989447e-01	 8.645706e-01	 1.125642e+00	 1.129726e+00	
142	 1.080000e+00	 7.829369e-01	 8.505437e-01	 7.892112e-01	 8.560716e-01	 1.127908e+00	 1.132035e+00	
143	 1.080000e+00	 7.734251e-01	 8.421969e-01	 7.795915e-01	 8.475958e-01	 1.130075e+00	 1.134243e+00	
144	 1.080000e+00	 7.640375e-01	 8.338737e-01	 7.700998e-01	 8.391481e-01	 1.132148e+00	 1.136355e+00	
145	 1.080000e+00	 7.547894e-01	 8.255793e-01	 7.607514e-01	 8.307336e-01	 1.134130e+00	 1.138375e+00	
146	 1.080000e+00	 7.456969e-01	 8.173191e-01	 7.515617e-01	 8.223578e-01	 1.136025e+00	 1.140308e+00	
147	 1.080000e+00	 7.367764e-01	 8.090986e-01	 7.425470e-01	 8.140259e-01	 1.137837e+00	 1.142156e+00	
148	 1.080000e+00	 7.280449e-01	 8.009235e-01	 7.337236e-01	 8.057435e-01	 1.139568e+00	 1.143923e+00	
149	 1.080000e+00	 7.195190e-01	 7.927998e-01	 7.251077e-01	 7.975165e-01	 1.141223e+00	 1.145612e+00	
150	 1.080000e+00	 7.112149e-01	 7.847337e-01	 7.167149e-01	 7.893508e-01	 1.142805e+00	 1.147228e+00	
151	 1.080000e+00	 7.031474e-01	 7.767314e-01	 7.085593e-01	 7.812528e-01	 1.144316e+00	 1.148772e+00	
152	 1.080000e+00	 6.953288e-01	 7.687997e-01	 7.006530e-01	 7.732289e-01	 1.145761e+00	 1.150249e+00	
153	 1.080000e+00	 6.877683e-01	 7.609455e-01	 6.930047e-01	 7.652859e-01	 1.147143e+00	 1.151661e+00	
154	 1.080000e+00	 6.804713e-01	 7.531760e-01	 6.856195e-01	 7.574309e-01	 1.148465e+00	 1.153010e+00	
155	 1.080000e+00	 6.734386e-01	 7.454988e-01	 6.784985e-01	 7.496714e-01	 1.149732e+00	 1.154300e+00	
156	 1.080000e+00	 6.666674e-01	 7.379218e-01	 6.716389e-01	 7.420150e-01	 1.150947e+00	 1.155533e+00	
157	 1.080000e+00	 6.601515e-01	 7.304529e-01	 6.650350e-01	 7.344695e-01	 1.152114e+00	 1.156712e+00	
158	 1.080000e+00	 6.538825e-01	 7.231005e-01	 6.586790e-01	 7.270431e-01	 1.153237e+00	 1.157839e+00	
159	 1.080000e+00	 6.478509e-01	 7.158731e-01	 6.525617e-01	 7.197442e-01	 1.154318e+00	 1.158916e+00	
160	 1.080000e+00	 6.420464e-01	 7.087793e-01	 6.466735e-01	 7.125811e-01	 1.155363e+00	 1.159946e+00	
161	 1.080000e+00	 6.364591e-01	 7.018276e-01	 6.410046e-01	 7.055622e-01	 1.156372e+00	 1.160931e+00	
162	 1.080000e+00	 6.310789e-01	 6.950266e-01	 6.355455e-01	 6.986958e-01	 1.157350e+00	 1.161873e+00	
163	 1.080000e+00	 6.258963e-01	 6.883841e-01	 6.302869e-01	 6.919896e-01	 1.158299e+00	 1.162775e+00	
164	 1.080000e+00	 6.209022e-01	 6.819078e-01	 6.252199e-01	 6.854509e-01	 1.159222e+00	 1.163637e+00	
165	 1.080000e+00	 6.160879e-01	 6.756039e-01	 6.203361e-01	 6.790859e-01	 1.160120e+00	 1.164464e+00	
166	 1.080000e+00	 6.114453e-01	 6.694777e-01	 6.156272e-01	 6.728997e-01	 1.160996e+00	 1.165256e+00	
167	 1.080000e+00	 6.069664e-01	 6.635330e-01	 6.110855e-01	 6.668958e-01	 1.161851e+00	 1.166015e+00	
168	 1.080000e+00	 6.026437e-01	 6.577715e-01	 6.067036e-01	 6.610761e-01	 1.162687e+00	 1.166744e+00	
169	 1.080000e+00	 5.984702e-01	 6.521935e-01	 6.024743e-01	 6.554407e-01	 1.163506e+00	 1.167444e+00	
170	 1.080000e+00	 5.944391e-01	 6.467973e-01	 5.983908e-01	 6.499879e-01	 1.164309e+00	 1.168116e+00	
171	 1.080000e+00	 5.905440e-01	 6.415797e-01	 5.944468e-01	 6.447146e-01	 1.165097e+00	 1.168764e+00	
172	 1.080000e+00	 5.867787e-01	 6.365362e-01	 5.906359e-01	 6.396164e-01	 1.165871e+00	 1.169388e+00	
173	 1.080000e+00	 5.831375e-01	 6.316615e-01	 5.869523e-01	 6.346881e-01	 1.166632e+00	 1.169990e+00	
174	 1.080000e+00	 5.796148e-01	 6.269496e-01	 5.833904e-01	 6.299239e-01	 1.167381e+00	 1.170571e+00	
175	 1.080000e+00	 5.762054e-01	 6.223942e-01	 5.799448e-01	 6.253175e-01	 1.168118e+00	 1.171133e+00	
176	 1.080000e+00	 5.729043e-01	 6.179889e-01	 5.766104e-01	 6.208626e-01	 1.168844e+00	 1.171678e+00	
177	 1.080000e+00	 5.697068e-01	 6.137273e-01	 5.733824e-01	 6.165531e-01	 1.169560e+00	 1.172206e+00	
178	 1.080000e+00	 5.666084e-01	 6.096034e-01	 5.702561e-01	 6.123827e-01	 1.170265e+00	 1.172718e+00	
179	 1.080000e+00	 5.636048e-01	 6.056109e-01	 5.672271e-01	 6.083456e-01	 1.170960e+00	 1.173217e+00	
180	 1.080000e+00	 5.606921e-01	 6.017443e-01	 5.642912e-01	 6.044360e-01	 1.171646e+00	 1.173702e+00	
181	 1.080000e+00	 5.578662e-01	 5.979980e-01	 5.614444e-01	 6.006485e-01	 1.172322e+00	 1.174174e+00	
182	 1.080000e+00	 5.551237e-01	 5.943668e-01	 5.586830e-01	 5.969777e-01	 1.172988e+00	 1.174636e+00	
183	 1.080000e+00	 5.524610e-01	 5.908456e-01	 5.560032e-01	 5.934189e-01	 1.173645e+00	 1.175087e+00	
184	 1.080000e+00	 5.498748e-01	 5.874297e-01	 5.534017e-01	 5.899671e-01	 1.174292e+00	 1.175528e+00	
185	 1.080000e+00	 5.473619e-01	 5.841147e-01	 5.508753e-01	 5.866180e-01	 1.174930e+00	 1.175960e+00	
186	 1.080000e+00	 5.449195e-01	 5.808962e-01	 5.484206e-01	 5.833672e-01	 1.175559e+00	 1.176384e+00	
187	 1.080000e+00	 5.425446e-01	 5.777702e-01	 5.460349e-01	 5.802106e-01	 1.176178e+00	 1.176799e+00	
